Freq.	V(output)
1.00000000000000e+000	(1.99990214308100e+001dB,1.79963184127704e+002°)
1.07177346253629e+000	(1.99990211652801e+001dB,1.79960541725876e+002°)
1.14869835499703e+000	(1.99990208602662e+001dB,1.79957709669904e+002°)
1.23114441334492e+000	(1.99990205098975e+001dB,1.79954674347698e+002°)
1.31950791077289e+000	(1.99990201074295e+001dB,1.79951421170188e+002°)
1.41421356237309e+000	(1.99990196451151e+001dB,1.79947934501210e+002°)
1.51571656651040e+000	(1.99990191140554e+001dB,1.79944197582353e+002°)
1.62450479271247e+000	(1.99990185040282e+001dB,1.79940192452416e+002°)
1.74110112659225e+000	(1.99990178032910e+001dB,1.79935899861080e+002°)
1.86606598307361e+000	(1.99990169983554e+001dB,1.79931299176397e+002°)
2.00000000000000e+000	(1.99990160737275e+001dB,1.79926368285622e+002°)
2.14354692507259e+000	(1.99990150116091e+001dB,1.79921083488949e+002°)
2.29739670999407e+000	(1.99990137915557e+001dB,1.79915419385604e+002°)
2.46228882668983e+000	(1.99990123900830e+001dB,1.79909348751776e+002°)
2.63901582154579e+000	(1.99990107802140e+001dB,1.79902842409788e+002°)
2.82842712474619e+000	(1.99990089309609e+001dB,1.79895869087877e+002°)
3.03143313302079e+000	(1.99990068067280e+001dB,1.79888395269916e+002°)
3.24900958542494e+000	(1.99990043666263e+001dB,1.79880385034358e+002°)
3.48220225318449e+000	(1.99990015636873e+001dB,1.79871799881627e+002°)
3.73213196614723e+000	(1.99989983439580e+001dB,1.79862598549119e+002°)
4.00000000000000e+000	(1.99989946454633e+001dB,1.79852736812951e+002°)
4.28709385014517e+000	(1.99989903970123e+001dB,1.79842167275473e+002°)
4.59479341998814e+000	(1.99989855168289e+001dB,1.79830839137565e+002°)
4.92457765337966e+000	(1.99989799109768e+001dB,1.79818697954591e+002°)
5.27803164309157e+000	(1.99989734715528e+001dB,1.79805685374869e+002°)
5.65685424949238e+000	(1.99989660746089e+001dB,1.79791738859398e+002°)
6.06286626604159e+000	(1.99989575777670e+001dB,1.79776791381495e+002°)
6.49801917084988e+000	(1.99989478174793e+001dB,1.79760771104925e+002°)
6.96440450636899e+000	(1.99989366058798e+001dB,1.79743601038972e+002°)
7.46426393229445e+000	(1.99989237271698e+001dB,1.79725198668829e+002°)
7.99999999999999e+000	(1.99989089334638e+001dB,1.79705475559519e+002°)
8.57418770029034e+000	(1.99988919400203e+001dB,1.79684336931502e+002°)
9.18958683997627e+000	(1.99988724197619e+001dB,1.79661681205928e+002°)
9.84915530675932e+000	(1.99988499969813e+001dB,1.79637399517404e+002°)
1.05560632861831e+001	(1.99988242401130e+001dB,1.79611375191962e+002°)
1.13137084989847e+001	(1.99987946534293e+001dB,1.79583483187787e+002°)
1.21257325320832e+001	(1.99987606675032e+001dB,1.79553589496067e+002°)
1.29960383416998e+001	(1.99987216282539e+001dB,1.79521550499183e+002°)
1.39288090127380e+001	(1.99986767843657e+001dB,1.79487212283234e+002°)
1.49285278645889e+001	(1.99986252728365e+001dB,1.79450409901731e+002°)
1.60000000000000e+001	(1.99985661023816e+001dB,1.79410966587068e+002°)
1.71483754005807e+001	(1.99984981343725e+001dB,1.79368692906160e+002°)
1.83791736799525e+001	(1.99984200609448e+001dB,1.79323385856415e+002°)
1.96983106135186e+001	(1.99983303798591e+001dB,1.79274827897998e+002°)
2.11121265723663e+001	(1.99982273656289e+001dB,1.79222785918048e+002°)
2.26274169979695e+001	(1.99981090363676e+001dB,1.79167010122316e+002°)
2.42514650641663e+001	(1.99979731157187e+001dB,1.79107232849428e+002°)
2.59920766833995e+001	(1.99978169891427e+001dB,1.79043167302687e+002°)
2.78576180254759e+001	(1.99976376537281e+001dB,1.78974506194131e+002°)
2.98570557291778e+001	(1.99974316605715e+001dB,1.78900920295330e+002°)
3.20000000000000e+001	(1.99971950486290e+001dB,1.78822056889082e+002°)
3.42967508011613e+001	(1.99969232687884e+001dB,1.78737538116132e+002°)
3.67583473599051e+001	(1.99966110967214e+001dB,1.78646959210707e+002°)
3.93966212270373e+001	(1.99962525328725e+001dB,1.78549886618667e+002°)
4.22242531447326e+001	(1.99958406877013e+001dB,1.78445855991920e+002°)
4.52548339959390e+001	(1.99953676500260e+001dB,1.78334370052908e+002°)
4.85029301283327e+001	(1.99948243360068e+001dB,1.78214896322944e+002°)
5.19841533667990e+001	(1.99942003159604e+001dB,1.78086864708665e+002°)
5.57152360509519e+001	(1.99934836157994e+001dB,1.77949664941178e+002°)
5.97141114583556e+001	(1.99926604894451e+001dB,1.77802643863300e+002°)
6.39999999999999e+001	(1.99917151580535e+001dB,1.77645102561286e+002°)
6.85935016023227e+001	(1.99906295113301e+001dB,1.77476293338762e+002°)
7.35166947198101e+001	(1.99893827655674e+001dB,1.77295416532522e+002°)
7.87932424540745e+001	(1.99879510723331e+001dB,1.77101617172212e+002°)
8.44485062894651e+001	(1.99863070709414e+001dB,1.76893981489084e+002°)
9.05096679918780e+001	(1.99844193769742e+001dB,1.76671533283085e+002°)
9.70058602566654e+001	(1.99822519981549e+001dB,1.76433230162412e+002°)
1.03968306733598e+002	(1.99797636678509e+001dB,1.76177959676462e+002°)
1.11430472101904e+002	(1.99769070853563e+001dB,1.75904535370555e+002°)
1.19428222916711e+002	(1.99736280509398e+001dB,1.75611692801265e+002°)
1.28000000000000e+002	(1.99698644824149e+001dB,1.75298085562799e+002°)
1.37187003204645e+002	(1.99655452987673e+001dB,1.74962281390350e+002°)
1.47033389439620e+002	(1.99605891551774e+001dB,1.74602758423996e+002°)
1.57586484908149e+002	(1.99549030126930e+001dB,1.74217901739023e+002°)
1.68897012578930e+002	(1.99483805249229e+001dB,1.73806000274661e+002°)
1.81019335983756e+002	(1.99409002235668e+001dB,1.73365244324745e+002°)
1.94011720513331e+002	(1.99323234845496e+001dB,1.72893723790959e+002°)
2.07936613467196e+002	(1.99224922571939e+001dB,1.72389427442519e+002°)
2.22860944203807e+002	(1.99112265405551e+001dB,1.71850243476375e+002°)
2.38856445833422e+002	(1.98983215941128e+001dB,1.71273961729476e+002°)
2.56000000000000e+002	(1.98835448748984e+001dB,1.70658277958405e+002°)
2.74374006409291e+002	(1.98666327003907e+001dB,1.70000800671660e+002°)
2.94066778879241e+002	(1.98472866468131e+001dB,1.69299061075460e+002°)
3.15172969816298e+002	(1.98251697064363e+001dB,1.68550526768848e+002°)
3.37794025157861e+002	(1.97999022460692e+001dB,1.67752619898236e+002°)
3.62038671967512e+002	(1.97710578327743e+001dB,1.66902740544151e+002°)
3.88023441026661e+002	(1.97381590227922e+001dB,1.65998296157047e+002°)
4.15873226934392e+002	(1.97006732461824e+001dB,1.65036737870423e+002°)
4.45721888407615e+002	(1.96580089629106e+001dB,1.64015604481931e+002°)
4.77712891666845e+002	(1.96095123154722e+001dB,1.62932574786082e+002°)
5.11999999999999e+002	(1.95544645570970e+001dB,1.61785528742370e+002°)
5.48748012818581e+002	(1.94920805901494e+001dB,1.60572617644265e+002°)
5.88133557758481e+002	(1.94215090017848e+001dB,1.59292342993461e+002°)
6.30345939632596e+002	(1.93418340263845e+001dB,1.57943643161252e+002°)
6.75588050315721e+002	(1.92520798876952e+001dB,1.56525986128503e+002°)
7.24077343935024e+002	(1.91512179666708e+001dB,1.55039465647269e+002°)
7.76046882053323e+002	(1.90381771917129e+001dB,1.53484897106708e+002°)
8.31746453868784e+002	(1.89118579441496e+001dB,1.51863908286568e+002°)
8.91443776815230e+002	(1.87711496047337e+001dB,1.50179019169300e+002°)
9.55425783333690e+002	(1.86149516330101e+001dB,1.48433704206527e+002°)
1.02400000000000e+003	(1.84421977781049e+001dB,1.46632430098308e+002°)
1.09749602563716e+003	(1.82518826843268e+001dB,1.44780662413094e+002°)
1.17626711551696e+003	(1.80430898117547e+001dB,1.42884835421225e+002°)
1.26069187926519e+003	(1.78150192841609e+001dB,1.40952281390312e+002°)
1.35117610063144e+003	(1.75670140561529e+001dB,1.38991118250434e+002°)
1.44815468787005e+003	(1.72985827068023e+001dB,1.37010097769024e+002°)
1.55209376410665e+003	(1.70094172544115e+001dB,1.35018419832986e+002°)
1.66349290773757e+003	(1.66994046588722e+001dB,1.33025521668813e+002°)
1.78288755363046e+003	(1.63686311154184e+001dB,1.31040853360434e+002°)
1.91085156666738e+003	(1.60173787987026e+001dB,1.29073652456570e+002°)
2.04800000000000e+003	(1.56461153168949e+001dB,1.27132730553888e+002°)
2.19499205127433e+003	(1.52554767013994e+001dB,1.25226283485437e+002°)
2.35253423103392e+003	(1.48462452149957e+001dB,1.23361734342856e+002°)
2.52138375853039e+003	(1.44193235574019e+001dB,1.21545615397960e+002°)
2.70235220126288e+003	(1.39757071598618e+001dB,1.19783491533904e+002°)
2.89630937574010e+003	(1.35164561978815e+001dB,1.18079924509155e+002°)
3.10418752821329e+003	(1.30426687464158e+001dB,1.16438474623745e+002°)
3.32698581547514e+003	(1.25554562032967e+001dB,1.14861734367275e+002°)
3.56577510726092e+003	(1.20559217650040e+001dB,1.13351387471773e+002°)
3.82170313333476e+003	(1.15451424009681e+001dB,1.11908286421740e+002°)
4.09599999999999e+003	(1.10241544716982e+001dB,1.10532541740979e+002°)
4.38998410254865e+003	(1.04939428938013e+001dB,1.09223617100708e+002°)
4.70506846206785e+003	(9.95543357819059e+000dB,1.07980425282588e+002°)
5.04276751706077e+003	(9.40948875643207e+000dB,1.06801421127440e+002°)
5.40470440252577e+003	(8.85690475358565e+000dB,1.05684688670473e+002°)
5.79261875148019e+003	(8.29841175430044e+000dB,1.04628020630757e+002°)
6.20837505642658e+003	(7.73467512871691e+000dB,1.03628989235683e+002°)
6.65397163095027e+003	(7.16629792549098e+000dB,1.02685008007316e+002°)
7.13155021452184e+003	(6.59382419072874e+000dB,1.01793384618847e+002°)
7.64340626666952e+003	(6.01774282747927e+000dB,1.00951365266717e+002°)
8.19199999999999e+003	(5.43849176459852e+000dB,1.00156171217013e+002°)
8.77996820509730e+003	(4.85646225448000e+000dB,9.94050283042379e+001°)
9.41013692413570e+003	(4.27200316353679e+000dB,9.86951902069084e+001°)
1.00855350341215e+004	(3.68542515623272e+000dB,9.80239563147543e+001°)
1.08094088050515e+004	(3.09700470595901e+000dB,9.73886849684528e+001°)
1.15852375029604e+004	(2.50698788952090e+000dB,9.67868027844540e+001°)
1.24167501128532e+004	(1.91559394300752e+000dB,9.62158107119190e+001°)
1.33079432619005e+004	(1.32301857057619e+000dB,9.56732873865528e+001°)
1.42631004290437e+004	(7.29437010040526e-001dB,9.51568902770156e+001°)
1.52868125333390e+004	(1.35006866545551e-001dB,9.46643550448733e+001°)
1.63840000000000e+004	(-4.60129268215835e-001dB,9.41934934764347e+001°)
1.75599364101946e+004	(-1.05584138965752e+000dB,9.37421902879621e+001°)
1.88202738482714e+004	(-1.65200982286315e+000dB,9.33083990540621e+001°)
2.01710700682431e+004	(-2.24852310818249e+000dB,9.28901374666599e+001°)
2.16188176101031e+004	(-2.84527600260831e+000dB,9.24854820979406e+001°)
2.31704750059208e+004	(-3.44216756959607e+000dB,9.20925628061574e+001°)
2.48335002257063e+004	(-4.03909932880620e+000dB,9.17095569034424e+001°)
2.66158865238011e+004	(-4.63597343715570e+000dB,9.13346831832848e+001°)
2.85262008580874e+004	(-5.23269087185256e+000dB,9.09661958916267e+001°)
3.05736250666781e+004	(-5.82914958544923e+000dB,9.06023787156949e+001°)
3.27680000000000e+004	(-6.42524260199130e+000dB,9.02415388586854e+001°)
3.51198728203892e+004	(-7.02085602222639e+000dB,8.98820012654003e+001°)
3.76405476965428e+004	(-7.61586690406831e+000dB,8.95221030688905e+001°)
4.03421401364862e+004	(-8.21014098344258e+000dB,8.91601883249679e+001°)
4.32376352202061e+004	(-8.80353019748554e+000dB,8.87946031232352e+001°)
4.63409500118415e+004	(-9.39586997099579e+000dB,8.84236911608080e+001°)
4.96670004514127e+004	(-9.98697622336662e+000dB,8.80457898929142e+001°)
5.32317730476022e+004	(-1.05766420513023e+001dB,8.76592273857266e+001°)
5.70524017161747e+004	(-1.11646340394843e+001dB,8.72623200273792e+001°)
6.11472501333561e+004	(-1.17506881492183e+001dB,8.68533712688655e+001°)
6.55359999999999e+004	(-1.23345051318611e+001dB,8.64306716085259e+001°)
7.02397456407784e+004	(-1.29157454134926e+001dB,8.59925000507363e+001°)
7.52810953930856e+004	(-1.34940233950668e+001dB,8.55371273078632e+001°)
8.06842802729723e+004	(-1.40689011138615e+001dB,8.50628210300646e+001°)
8.64752704404123e+004	(-1.46398812136352e+001dB,8.45678533724430e+001°)
9.26819000236830e+004	(-1.52063991752695e+001dB,8.40505112006002e+001°)
9.93340009028253e+004	(-1.57678147679283e+001dB,8.35091091946287e+001°)
1.00000000000000e+005	(-1.58216422126764e+001dB,8.34555828509067e+001°)
